
**** 11/26/22 22:34:56 *********** Evaluation PSpice (Nov 1999) **************

 * C:\Users\ASUS\OneDrive - American International University-Bangladesh\Desktop\Iec Lab(\Schematic1.sch


 ****     CIRCUIT DESCRIPTION


******************************************************************************




* Schematics Version 9.1 - Web Update 1
* Sat Nov 26 22:34:51 2022



** Analysis setup **
.OP 


* From [PSPICE NETLIST] section of pspiceev.ini:
.lib "nom.lib"

.INC "Schematic1.net"

**** INCLUDING Schematic1.net ****
* Schematics Netlist *



V_V1         $N_0001 0 28V
R_R1         0 $N_0001  12k  
R_R2         0 $N_0001  12k  
R_R3         0 $N_0001  3k  
R_R6         0 $N_0002  10.4  
R_R4         $N_0002 $N_0001  9k  
R_R5         $N_0002 $N_0001  6k  

**** RESUMING Schematic1.cir ****
.INC "Schematic1.als"



**** INCLUDING Schematic1.als ****
* Schematics Aliases *

.ALIASES
V_V1            V1(+=$N_0001 -=0 )
R_R1            R1(1=0 2=$N_0001 )
R_R2            R2(1=0 2=$N_0001 )
R_R3            R3(1=0 2=$N_0001 )
R_R6            R6(1=0 2=$N_0002 )
R_R4            R4(1=$N_0002 2=$N_0001 )
R_R5            R5(1=$N_0002 2=$N_0001 )
.ENDALIASES


**** RESUMING Schematic1.cir ****
.probe


.END

**** 11/26/22 22:34:56 *********** Evaluation PSpice (Nov 1999) **************

 * C:\Users\ASUS\OneDrive - American International University-Bangladesh\Desktop\Iec Lab(\Schematic1.sch


 ****     SMALL SIGNAL BIAS SOLUTION       TEMPERATURE =   27.000 DEG C


******************************************************************************



 NODE   VOLTAGE     NODE   VOLTAGE     NODE   VOLTAGE     NODE   VOLTAGE


($N_0001)   28.0000                   ($N_0002)     .0807                   




    VOLTAGE SOURCE CURRENTS
    NAME         CURRENT

    V_V1        -2.176E-02

    TOTAL POWER DISSIPATION   6.09E-01  WATTS


**** 11/26/22 22:34:56 *********** Evaluation PSpice (Nov 1999) **************

 * C:\Users\ASUS\OneDrive - American International University-Bangladesh\Desktop\Iec Lab(\Schematic1.sch


 ****     OPERATING POINT INFORMATION      TEMPERATURE =   27.000 DEG C


******************************************************************************





          JOB CONCLUDED

          TOTAL JOB TIME             .02
