
**** 11/26/22 23:45:09 *********** Evaluation PSpice (Nov 1999) **************

 * C:\Users\ASUS\OneDrive - American International University-Bangladesh\Desktop\Simulation\Schematic7.sch


 ****     CIRCUIT DESCRIPTION


******************************************************************************




* Schematics Version 9.1 - Web Update 1
* Sat Nov 26 23:45:09 2022



** Analysis setup **
.OP 


* From [PSPICE NETLIST] section of pspiceev.ini:
.lib "nom.lib"

.INC "Schematic7.net"

**** INCLUDING Schematic7.net ****
* Schematics Netlist *



R_R1         0 $N_0001  6.8k  
V_V1         $N_0002 0 12V
R_R2         $N_0001 $N_0002  2.2k  
I_I1         0 $N_0001 DC 8m  
I_I2         $N_0001 0 DC 3m  

**** RESUMING Schematic7.cir ****
.INC "Schematic7.als"



**** INCLUDING Schematic7.als ****
* Schematics Aliases *

.ALIASES
R_R1            R1(1=0 2=$N_0001 )
V_V1            V1(+=$N_0002 -=0 )
R_R2            R2(1=$N_0001 2=$N_0002 )
I_I1            I1(+=0 -=$N_0001 )
I_I2            I2(+=$N_0001 -=0 )
.ENDALIASES


**** RESUMING Schematic7.cir ****
.probe


.END

**** 11/26/22 23:45:09 *********** Evaluation PSpice (Nov 1999) **************

 * C:\Users\ASUS\OneDrive - American International University-Bangladesh\Desktop\Simulation\Schematic7.sch


 ****     SMALL SIGNAL BIAS SOLUTION       TEMPERATURE =   27.000 DEG C


******************************************************************************



 NODE   VOLTAGE     NODE   VOLTAGE     NODE   VOLTAGE     NODE   VOLTAGE


($N_0001)   17.3780                   ($N_0002)   12.0000                   




    VOLTAGE SOURCE CURRENTS
    NAME         CURRENT

    V_V1         2.444E-03

    TOTAL POWER DISSIPATION  -2.93E-02  WATTS


**** 11/26/22 23:45:09 *********** Evaluation PSpice (Nov 1999) **************

 * C:\Users\ASUS\OneDrive - American International University-Bangladesh\Desktop\Simulation\Schematic7.sch


 ****     OPERATING POINT INFORMATION      TEMPERATURE =   27.000 DEG C


******************************************************************************





          JOB CONCLUDED

          TOTAL JOB TIME            0.00
