
**** 11/26/22 23:25:32 *********** Evaluation PSpice (Nov 1999) **************

 * C:\Users\User\Desktop\IEC LAB PSPIECE Data & Schematics\Schematics\2.sch


 ****     CIRCUIT DESCRIPTION


******************************************************************************




* Schematics Version 9.1 - Web Update 1
* Sat Nov 26 23:25:29 2022



** Analysis setup **
.OP 


* From [PSPICE NETLIST] section of pspiceev.ini:
.lib "nom.lib"

.INC "2.net"

**** INCLUDING 2.net ****
* Schematics Netlist *



V_V1         $N_0001 0 80V
R_R1         0 $N_0001  0.01k  
R_R2         $N_0002 $N_0001  0.005k  
R_R3         $N_0002 $N_0003  0.008k  
R_R4         $N_0003 $N_0004  0.004k  
R_R5         $N_0003 $N_0004  0.008k  
R_R6         $N_0002 $N_0005  0.006k  
R_R7         $N_0003 $N_0006  0.006k  
R_R8         $N_0004 $N_0006  0.002k  
R_R9         0 $N_0005  0.004k  

**** RESUMING 2.cir ****
.INC "2.als"



**** INCLUDING 2.als ****
* Schematics Aliases *

.ALIASES
V_V1            V1(+=$N_0001 -=0 )
R_R1            R1(1=0 2=$N_0001 )
R_R2            R2(1=$N_0002 2=$N_0001 )
R_R3            R3(1=$N_0002 2=$N_0003 )
R_R4            R4(1=$N_0003 2=$N_0004 )
R_R5            R5(1=$N_0003 2=$N_0004 )
R_R6            R6(1=$N_0002 2=$N_0005 )
R_R7            R7(1=$N_0003 2=$N_0006 )
R_R8            R8(1=$N_0004 2=$N_0006 )
R_R9            R9(1=0 2=$N_0005 )
.ENDALIASES


**** RESUMING 2.cir ****
.probe


.END

**** 11/26/22 23:25:32 *********** Evaluation PSpice (Nov 1999) **************

 * C:\Users\User\Desktop\IEC LAB PSPIECE Data & Schematics\Schematics\2.sch


 ****     SMALL SIGNAL BIAS SOLUTION       TEMPERATURE =   27.000 DEG C


******************************************************************************



 NODE   VOLTAGE     NODE   VOLTAGE     NODE   VOLTAGE     NODE   VOLTAGE


($N_0001)   80.0000                   ($N_0002)   53.3330                       

($N_0003)   53.3330                   ($N_0004)   53.3330                       

($N_0005)   21.3330                   ($N_0006)   53.3330                   




    VOLTAGE SOURCE CURRENTS
    NAME         CURRENT

    V_V1        -1.333E+01

    TOTAL POWER DISSIPATION   1.07E+03  WATTS


**** 11/26/22 23:25:32 *********** Evaluation PSpice (Nov 1999) **************

 * C:\Users\User\Desktop\IEC LAB PSPIECE Data & Schematics\Schematics\2.sch


 ****     OPERATING POINT INFORMATION      TEMPERATURE =   27.000 DEG C


******************************************************************************





          JOB CONCLUDED

          TOTAL JOB TIME             .02
