
**** 11/26/22 23:38:55 *********** Evaluation PSpice (Nov 1999) **************

 * C:\Users\User\Desktop\IEC LAB PSPIECE Data & Schematics\Schematics\3.sch


 ****     CIRCUIT DESCRIPTION


******************************************************************************




* Schematics Version 9.1 - Web Update 1
* Sat Nov 26 23:38:50 2022



** Analysis setup **
.OP 


* From [PSPICE NETLIST] section of pspiceev.ini:
.lib "nom.lib"

.INC "3.net"

**** INCLUDING 3.net ****
* Schematics Netlist *



R_R1         0 $N_0001  0.01k  
R_R2         $N_0002 $N_0001  0.02k  
R_R3         $N_0002 0  0.005k  
R_R4         $N_0001 $N_0003  0.014k  
R_R5         $N_0003 $N_0002  0.006k  
V_V1         $N_0002 0 20V

**** RESUMING 3.cir ****
.INC "3.als"



**** INCLUDING 3.als ****
* Schematics Aliases *

.ALIASES
R_R1            R1(1=0 2=$N_0001 )
R_R2            R2(1=$N_0002 2=$N_0001 )
R_R3            R3(1=$N_0002 2=0 )
R_R4            R4(1=$N_0001 2=$N_0003 )
R_R5            R5(1=$N_0003 2=$N_0002 )
V_V1            V1(+=$N_0002 -=0 )
.ENDALIASES


**** RESUMING 3.cir ****
.probe


.END

**** 11/26/22 23:38:55 *********** Evaluation PSpice (Nov 1999) **************

 * C:\Users\User\Desktop\IEC LAB PSPIECE Data & Schematics\Schematics\3.sch


 ****     SMALL SIGNAL BIAS SOLUTION       TEMPERATURE =   27.000 DEG C


******************************************************************************



 NODE   VOLTAGE     NODE   VOLTAGE     NODE   VOLTAGE     NODE   VOLTAGE


($N_0001)   10.0000                   ($N_0002)   20.0000                       

($N_0003)   17.0000                   




    VOLTAGE SOURCE CURRENTS
    NAME         CURRENT

    V_V1        -5.000E+00

    TOTAL POWER DISSIPATION   1.00E+02  WATTS


**** 11/26/22 23:38:55 *********** Evaluation PSpice (Nov 1999) **************

 * C:\Users\User\Desktop\IEC LAB PSPIECE Data & Schematics\Schematics\3.sch


 ****     OPERATING POINT INFORMATION      TEMPERATURE =   27.000 DEG C


******************************************************************************





          JOB CONCLUDED

          TOTAL JOB TIME             .02
