
**** 11/27/22 00:41:12 *********** Evaluation PSpice (Nov 1999) **************

 * C:\Users\User\Desktop\IEC LAB PSPIECE Data & Schematics\Schematics\6.sch


 ****     CIRCUIT DESCRIPTION


******************************************************************************




* Schematics Version 9.1 - Web Update 1
* Sun Nov 27 00:41:07 2022



** Analysis setup **
.OP 


* From [PSPICE NETLIST] section of pspiceev.ini:
.lib "nom.lib"

.INC "6.net"

**** INCLUDING 6.net ****
* Schematics Netlist *



V_V1         $N_0001 0 15V
R_R3         $N_0001 $N_0002  0.01k  
R_R1         $N_0001 $N_0003  0.008k  
R_R2         $N_0003 $N_0002  0.005k  
R_R4         0 $N_0003  0.003k  
R_R5         0 $N_0002  0.002k  

**** RESUMING 6.cir ****
.INC "6.als"



**** INCLUDING 6.als ****
* Schematics Aliases *

.ALIASES
V_V1            V1(+=$N_0001 -=0 )
R_R3            R3(1=$N_0001 2=$N_0002 )
R_R1            R1(1=$N_0001 2=$N_0003 )
R_R2            R2(1=$N_0003 2=$N_0002 )
R_R4            R4(1=0 2=$N_0003 )
R_R5            R5(1=0 2=$N_0002 )
.ENDALIASES


**** RESUMING 6.cir ****
.probe


.END

**** 11/27/22 00:41:12 *********** Evaluation PSpice (Nov 1999) **************

 * C:\Users\User\Desktop\IEC LAB PSPIECE Data & Schematics\Schematics\6.sch


 ****     SMALL SIGNAL BIAS SOLUTION       TEMPERATURE =   27.000 DEG C


******************************************************************************



 NODE   VOLTAGE     NODE   VOLTAGE     NODE   VOLTAGE     NODE   VOLTAGE


($N_0001)   15.0000                   ($N_0002)    2.7997                       

($N_0003)    3.6986                   




    VOLTAGE SOURCE CURRENTS
    NAME         CURRENT

    V_V1        -2.633E+00

    TOTAL POWER DISSIPATION   3.95E+01  WATTS


**** 11/27/22 00:41:12 *********** Evaluation PSpice (Nov 1999) **************

 * C:\Users\User\Desktop\IEC LAB PSPIECE Data & Schematics\Schematics\6.sch


 ****     OPERATING POINT INFORMATION      TEMPERATURE =   27.000 DEG C


******************************************************************************





          JOB CONCLUDED

          TOTAL JOB TIME             .02
