
**** 11/27/22 00:47:41 *********** Evaluation PSpice (Nov 1999) **************

 * C:\Users\User\Desktop\IEC LAB PSPIECE Data & Schematics\Schematics\7.sch


 ****     CIRCUIT DESCRIPTION


******************************************************************************




* Schematics Version 9.1 - Web Update 1
* Sun Nov 27 00:47:38 2022



** Analysis setup **
.OP 


* From [PSPICE NETLIST] section of pspiceev.ini:
.lib "nom.lib"

.INC "7.net"

**** INCLUDING 7.net ****
* Schematics Netlist *



I_I1         0 $N_0001 DC 8mA  
R_R1         $N_0001 $N_0002  2.2k  
R_R2         0 $N_0001  6.8k  
V_V1         $N_0002 0 12V
I_I2         $N_0001 0 DC 3mA  

**** RESUMING 7.cir ****
.INC "7.als"



**** INCLUDING 7.als ****
* Schematics Aliases *

.ALIASES
I_I1            I1(+=0 -=$N_0001 )
R_R1            R1(1=$N_0001 2=$N_0002 )
R_R2            R2(1=0 2=$N_0001 )
V_V1            V1(+=$N_0002 -=0 )
I_I2            I2(+=$N_0001 -=0 )
.ENDALIASES


**** RESUMING 7.cir ****
.probe


.END

**** 11/27/22 00:47:41 *********** Evaluation PSpice (Nov 1999) **************

 * C:\Users\User\Desktop\IEC LAB PSPIECE Data & Schematics\Schematics\7.sch


 ****     SMALL SIGNAL BIAS SOLUTION       TEMPERATURE =   27.000 DEG C


******************************************************************************



 NODE   VOLTAGE     NODE   VOLTAGE     NODE   VOLTAGE     NODE   VOLTAGE


($N_0001)   17.3780                   ($N_0002)   12.0000                   




    VOLTAGE SOURCE CURRENTS
    NAME         CURRENT

    V_V1         2.444E-03

    TOTAL POWER DISSIPATION  -2.93E-02  WATTS


**** 11/27/22 00:47:41 *********** Evaluation PSpice (Nov 1999) **************

 * C:\Users\User\Desktop\IEC LAB PSPIECE Data & Schematics\Schematics\7.sch


 ****     OPERATING POINT INFORMATION      TEMPERATURE =   27.000 DEG C


******************************************************************************





          JOB CONCLUDED

          TOTAL JOB TIME            0.00
